
T1AF4 000:006 SEGGER J-Link V6.22 Log File (0007ms, 0013ms total)
T1AF4 000:006 DLL Compiled: Nov 24 2017 18:35:13 (0007ms, 0013ms total)
T1AF4 000:006 Logging started @ 2018-02-24 11:03 (0007ms, 0013ms total)
T1AF4 000:013 JLINK_SetWarnOutHandler(...) (0000ms, 0013ms total)
T1AF4 000:013 JLINK_OpenEx(...)
Firmware: J-Link ARM V8 compiled Nov 28 2014 13:44:46
Hardware: V8.00
S/N: 268006192
OEM: SEGGER-EDU
Feature(s): FlashBP, GDB
TELNET listener socket opened on port 19021WEBSRV 
Starting webserver (0014ms, 0027ms total)
T1AF4 000:013 WEBSRV Webserver running on local port 19080 (0014ms, 0027ms total)
T1AF4 000:013   returns O.K. (0014ms, 0027ms total)
T1AF4 000:027 JLINK_GetEmuCaps()  returns 0xB9FF7BBF (0000ms, 0027ms total)
T1AF4 000:027 JLINK_TIF_GetAvailable(...) (0001ms, 0028ms total)
T1AF4 000:028 JLINK_SetErrorOutHandler(...) (0000ms, 0028ms total)
T1AF4 000:028 JLINK_ExecCommand("ProjectFile = "C:\Users\Jesus\Documents\DBM\Trabajo\reproductor_mp3_lpc4078_libmad_dac_y_uda1380_recibiendo_por_uart\JLinkSettings.ini"", ...). C:\Program Files (x86)\SEGGER\JLink_V622\JLinkDevices.xml evaluated successfully.  returns 0x00 (0497ms, 0525ms total)
T1AF4 000:525 JLINK_ExecCommand("Device = LPC4078FBD80", ...). Device "LPC4078" selected.  returns 0x00 (0010ms, 0535ms total)
T1AF4 000:535 JLINK_ExecCommand("DisableConnectionTimeout", ...).   returns 0x01 (0000ms, 0535ms total)
T1AF4 000:535 JLINK_GetHardwareVersion()  returns 0x13880 (0000ms, 0535ms total)
T1AF4 000:536 JLINK_GetDLLVersion()  returns 62200 (0000ms, 0535ms total)
T1AF4 000:536 JLINK_GetDLLVersion()  returns 62200 (0000ms, 0535ms total)
T1AF4 000:536 JLINK_GetCompileDateTime() (0000ms, 0535ms total)
T1AF4 000:536 JLINK_GetFirmwareString(...) (0000ms, 0535ms total)
T1AF4 000:536 JLINK_GetHardwareVersion()  returns 0x13880 (0000ms, 0535ms total)
T1AF4 000:536 JLINK_TIF_Select(JLINKARM_TIF_JTAG)  returns 0x00 (0002ms, 0537ms total)
T1AF4 000:538 JLINK_SetSpeed(5000) (0000ms, 0537ms total)
T1AF4 000:538 JLINK_GetIdData(...) >0x2F8 JTAG>TotalIRLen = 4, IRPrint = 0x01 >0x30 JTAG> >0x30 JTAG>JTAG chain detection found 1 devices: #0 Id: 0x4BA00477, IRLen: 04, CoreSight JTAG-DPScanning AP map to find all available APs >0x78 JTAG> >0x48 JTAG> >0x40 JTAG> >0x40 JTAG> >0x48 JTAG> >0x40 JTAG>AP[1]: Stopped AP scan as end of AP map has been reachedAP[0]: AHB-AP (IDR: 0x24770011)Iterating through AP map to find AHB-AP to use >0x78 JTAG> >0x48 JTAG> >0x48 JTAG> >0x78 JTAG> >0x40 JTAG> >0x30 JTAG>
 >0x40 JTAG> >0x40 JTAG>AP[0]: Core foundAP[0]: AHB-AP ROM base: 0xE00FF000 >0x40 JTAG> >0x40 JTAG> >0x30 JTAG> >0x40 JTAG> >0x40 JTAG>CPUID register: 0x410FC241. Implementer code: 0x41 (ARM)Found Cortex-M4 r0p1, Little endian. -- CPU_ReadMem(4 bytes @ 0xE000EDF0) -- CPU_WriteMem(4 bytes @ 0xE000EDF0) -- CPU_ReadMem(4 bytes @ 0xE0002000)FPUnit: 6 code (BP) slots and 2 literal slots -- CPU_ReadMem(4 bytes @ 0xE000EDFC) -- CPU_WriteMem(4 bytes @ 0xE000EDFC) -- CPU_ReadMem(4 bytes @ 0xE0001000)
 -- CPU_WriteMem(4 bytes @ 0xE0001000) -- CPU_ReadMem(4 bytes @ 0xE000ED88) -- CPU_WriteMem(4 bytes @ 0xE000ED88) -- CPU_ReadMem(4 bytes @ 0xE000ED88) -- CPU_WriteMem(4 bytes @ 0xE000ED88)CoreSight components:ROMTbl[0] @ E00FF000 -- CPU_ReadMem(16 bytes @ 0xE00FF000) -- CPU_ReadMem(16 bytes @ 0xE000EFF0) -- CPU_ReadMem(16 bytes @ 0xE000EFE0)ROMTbl[0][0]: E000E000, CID: B105E00D, PID: 000BB00C SCS -- CPU_ReadMem(16 bytes @ 0xE0001FF0) -- CPU_ReadMem(16 bytes @ 0xE0001FE0)
ROMTbl[0][1]: E0001000, CID: B105E00D, PID: 003BB002 DWT -- CPU_ReadMem(16 bytes @ 0xE0002FF0) -- CPU_ReadMem(16 bytes @ 0xE0002FE0)ROMTbl[0][2]: E0002000, CID: B105E00D, PID: 002BB003 FPB -- CPU_ReadMem(16 bytes @ 0xE0000FF0) -- CPU_ReadMem(16 bytes @ 0xE0000FE0)ROMTbl[0][3]: E0000000, CID: B105E00D, PID: 003BB001 ITM -- CPU_ReadMem(16 bytes @ 0xE00FF010) -- CPU_ReadMem(16 bytes @ 0xE0040FF0) -- CPU_ReadMem(16 bytes @ 0xE0040FE0)ROMTbl[0][4]: E0040000, CID: B105900D, PID: 000BB9A1 TPIU
 -- CPU_ReadMem(16 bytes @ 0xE0041FF0) -- CPU_ReadMem(16 bytes @ 0xE0041FE0)ROMTbl[0][5]: E0041000, CID: B105900D, PID: 000BB925 ETM ScanLen=4 NumDevices=1 aId[0]=0x4BA00477 aIrRead[0]=0 aScanLen[0]=0 aScanRead[0]=0 (0030ms, 0567ms total)
T1AF4 000:568 JLINK_JTAG_GetDeviceID(DeviceIndex = 0)  returns 0x4BA00477 (0000ms, 0567ms total)
T1AF4 000:568 JLINK_JTAG_GetDeviceInfo(DeviceIndex = 0)  returns 0x00 (0000ms, 0567ms total)
T1AF4 000:568 JLINK_GetDLLVersion()  returns 62200 (0000ms, 0567ms total)
T1AF4 000:568 JLINK_CORE_GetFound()  returns 0xE0000FF (0000ms, 0567ms total)
T1AF4 000:568 JLINK_GetDebugInfo(0x100 = JLINKARM_ROM_TABLE_ADDR_INDEX) -- Value=0xE00FF000  returns 0x00 (0000ms, 0567ms total)
T1AF4 000:568 JLINK_GetDebugInfo(0x100 = JLINKARM_ROM_TABLE_ADDR_INDEX) -- Value=0xE00FF000  returns 0x00 (0000ms, 0567ms total)
T1AF4 000:568 JLINK_GetDebugInfo(0x101 = JLINKARM_DEBUG_INFO_ETM_ADDR_INDEX) -- Value=0xE0041000  returns 0x00 (0000ms, 0567ms total)
T1AF4 000:568 JLINK_ReadMemEx(0xE0041FD0, 0x0020 Bytes, ..., Flags = 0x02000004) -- CPU_ReadMem(32 bytes @ 0xE0041FD0) - Data: 04 00 00 00 00 00 00 00 00 00 00 00 00 00 00 00 ...  returns 0x20 (0001ms, 0568ms total)
T1AF4 000:569 JLINK_GetDebugInfo(0x102 = JLINKARM_DEBUG_INFO_MTB_ADDR_INDEX) -- Value=0x00000000  returns 0x00 (0000ms, 0568ms total)
T1AF4 000:569 JLINK_GetDebugInfo(0x103 = JLINKARM_DEBUG_INFO_TPIU_ADDR_INDEX) -- Value=0xE0040000  returns 0x00 (0000ms, 0568ms total)
T1AF4 000:569 JLINK_GetDebugInfo(0x104 = JLINKARM_DEBUG_INFO_ITM_ADDR_INDEX) -- Value=0xE0000000  returns 0x00 (0000ms, 0568ms total)
T1AF4 000:569 JLINK_GetDebugInfo(0x105 = JLINKARM_DEBUG_INFO_DWT_ADDR_INDEX) -- Value=0xE0001000  returns 0x00 (0000ms, 0568ms total)
T1AF4 000:569 JLINK_GetDebugInfo(0x106 = JLINKARM_DEBUG_INFO_FPB_ADDR_INDEX) -- Value=0xE0002000  returns 0x00 (0000ms, 0568ms total)
T1AF4 000:569 JLINK_GetDebugInfo(0x107 = JLINKARM_DEBUG_INFO_NVIC_ADDR_INDEX) -- Value=0xE000E000  returns 0x00 (0000ms, 0568ms total)
T1AF4 000:569 JLINK_GetDebugInfo(0x10C = JLINKARM_DEBUG_INFO_DBG_ADDR_INDEX) -- Value=0xE000EDF0  returns 0x00 (0000ms, 0568ms total)
T1AF4 000:569 JLINK_ReadMemU32(0xE000EF40, 0x0001 Items, ...) -- CPU_ReadMem(4 bytes @ 0xE000EF40) - Data: 21 00 11 10  returns 0x01 (0001ms, 0569ms total)
T1AF4 000:570 JLINK_ReadMemU32(0xE000EF44, 0x0001 Items, ...) -- CPU_ReadMem(4 bytes @ 0xE000EF44) - Data: 11 00 00 11  returns 0x01 (0001ms, 0570ms total)
T1AF4 000:571 JLINK_ReadMemU32(0xE000ED00, 0x0001 Items, ...) -- CPU_ReadMem(4 bytes @ 0xE000ED00) - Data: 41 C2 0F 41  returns 0x01 (0001ms, 0571ms total)
T1AF4 000:572 JLINK_GetDebugInfo(0x10F = JLINKARM_DEBUG_INFO_HAS_CORTEX_M_SECURITY_EXT_INDEX) -- Value=0x00000000  returns 0x00 (0000ms, 0571ms total)
T1AF4 000:572 JLINK_SetResetType(JLINKARM_CM3_RESET_TYPE_NORMAL)  returns JLINKARM_CM3_RESET_TYPE_HALT_AFTER_BTL (0000ms, 0571ms total)
T1AF4 000:572 JLINK_Reset() -- CPU is running -- CPU_WriteMem(4 bytes @ 0xE000EDF0) -- CPU is running -- CPU_WriteMem(4 bytes @ 0xE000EDFC)Reset: Halt core after reset via DEMCR.VC_CORERESET.Reset: Reset device via AIRCR.SYSRESETREQ. -- CPU is running -- CPU_WriteMem(4 bytes @ 0xE000ED0C) -- CPU_ReadMem(4 bytes @ 0xE000EDF0) -- CPU_ReadMem(4 bytes @ 0xE000EDF0) -- CPU is running -- CPU_WriteMem(4 bytes @ 0xE000EDF0) -- CPU is running -- CPU_WriteMem(4 bytes @ 0xE000EDFC)
 -- CPU_ReadMem(4 bytes @ 0xE000EDF0) -- CPU_WriteMem(4 bytes @ 0xE000EDFC) -- CPU_WriteMem(4 bytes @ 0xE0001028) -- CPU_WriteMem(4 bytes @ 0xE0001038) -- CPU_WriteMem(4 bytes @ 0xE0001048) -- CPU_WriteMem(4 bytes @ 0xE0001058) -- CPU_WriteMem(4 bytes @ 0xE000EDFC) -- CPU_WriteMem(4 bytes @ 0xE0001028) -- CPU_WriteMem(4 bytes @ 0xE0001028) -- CPU_WriteMem(4 bytes @ 0xE000EDFC) -- CPU_WriteMem(4 bytes @ 0xE0001028) -- CPU_WriteMem(4 bytes @ 0xE0001028) -- CPU_WriteMem(4 bytes @ 0xE000EDFC)
 -- CPU_WriteMem(4 bytes @ 0xE0001028) -- CPU_WriteMem(4 bytes @ 0xE0001028) -- CPU_WriteMem(4 bytes @ 0xE000EDFC) -- CPU_WriteMem(4 bytes @ 0xE0001028) -- CPU_WriteMem(4 bytes @ 0xE0001028) -- CPU_WriteMem(4 bytes @ 0xE000EDFC) -- CPU_WriteMem(4 bytes @ 0xE0001050) -- CPU_WriteMem(4 bytes @ 0xE0001054) -- CPU_WriteMem(4 bytes @ 0xE0001058) -- CPU_ReadMem(4 bytes @ 0xE0001000) -- CPU_WriteMem(4 bytes @ 0xE000EDFC) -- CPU_WriteMem(4 bytes @ 0xE0001058) -- CPU_ReadMem(4 bytes @ 0x00000004)
 -- CPU_ReadMem(4 bytes @ 0xE0002000) -- CPU_ReadMem(4 bytes @ 0xE0002008) -- CPU_ReadMem(4 bytes @ 0xE000200C) -- CPU_ReadMem(4 bytes @ 0xE0002010) -- CPU_ReadMem(4 bytes @ 0xE0002014) -- CPU_ReadMem(4 bytes @ 0xE0002018) -- CPU_ReadMem(4 bytes @ 0xE000201C) -- CPU_WriteMem(4 bytes @ 0xE0002000) -- CPU_WriteMem(4 bytes @ 0xE0002008) -- CPU_WriteMem(4 bytes @ 0xE000200C) -- CPU_WriteMem(4 bytes @ 0xE0002010) -- CPU_WriteMem(4 bytes @ 0xE0002014) -- CPU_WriteMem(4 bytes @ 0xE0002018)
 -- CPU_WriteMem(4 bytes @ 0xE000201C) -- CPU_ReadMem(4 bytes @ 0xE0001000) -- CPU_ReadMem(4 bytes @ 0x400FC040) -- CPU_WriteMem(4 bytes @ 0xE0002000) -- CPU_WriteMem(4 bytes @ 0xE0002008) -- CPU_WriteMem(4 bytes @ 0xE000200C) -- CPU_WriteMem(4 bytes @ 0xE0002010) -- CPU_WriteMem(4 bytes @ 0xE0002014) -- CPU_WriteMem(4 bytes @ 0xE0002018) -- CPU_WriteMem(4 bytes @ 0xE000201C) -- CPU_WriteMem(4 bytes @ 0xE0002000) -- CPU_ReadMem(4 bytes @ 0xE000EDFC) -- CPU_ReadMem(4 bytes @ 0xE0001000)
 (0311ms, 0882ms total)
T1AF4 000:883 JLINK_ReadReg(R15 (PC))  returns 0x000001AC (0000ms, 0882ms total)
T1AF4 000:883 JLINK_ReadReg(XPSR)  returns 0x61000000 (0000ms, 0882ms total)
T1AF4 000:883 JLINK_Halt()  returns 0x00 (0000ms, 0882ms total)
T1AF4 000:883 JLINK_ReadMemU32(0xE000EDF0, 0x0001 Items, ...) -- CPU_ReadMem(4 bytes @ 0xE000EDF0) - Data: 03 00 03 00  returns 0x01 (0002ms, 0884ms total)
T1AF4 000:885 JLINK_WriteU32(0xE000EDF0, 0xA05F0003) -- CPU_WriteMem(4 bytes @ 0xE000EDF0)  returns 0x00 (0001ms, 0885ms total)
T1AF4 000:886 JLINK_WriteU32(0xE000EDFC, 0x01000000) -- CPU_WriteMem(4 bytes @ 0xE000EDFC)  returns 0x00 (0001ms, 0886ms total)
T1AF4 000:887 JLINK_GetHWStatus(...)  returns 0x00 (0001ms, 0887ms total)
T1AF4 000:888 JLINK_GetNumBPUnits(Type = 0xFFFFFF00)  returns 0x06 (0000ms, 0887ms total)
T1AF4 000:888 JLINK_GetNumBPUnits(Type = 0xF0)  returns 0x2000 (0000ms, 0887ms total)
T1AF4 000:888 JLINK_GetNumWPUnits()  returns 0x04 (0000ms, 0887ms total)
T1AF4 000:888 JLINK_GetSpeed()  returns 0x12C0 (0000ms, 0887ms total)
T1AF4 000:888 JLINK_ReadMemU32(0xE000E004, 0x0001 Items, ...) -- CPU_ReadMem(4 bytes @ 0xE000E004) - Data: 01 00 00 00  returns 0x01 (0002ms, 0889ms total)
T1AF4 000:890 JLINK_ReadMemU32(0xE000E004, 0x0001 Items, ...) -- CPU_ReadMem(4 bytes @ 0xE000E004) - Data: 01 00 00 00  returns 0x01 (0001ms, 0890ms total)
T1AF4 000:891 JLINK_WriteMemEx(0xE0001000, 0x001C Bytes, ..., Flags = 0x02000004) - Data: 01 00 00 00 00 00 00 00 00 00 00 00 00 00 00 00 ... -- CPU_WriteMem(28 bytes @ 0xE0001000)  returns 0x1C (0003ms, 0893ms total)
T1AF4 000:894 JLINK_ReadReg(R15 (PC))  returns 0x000001AC (0000ms, 0893ms total)
T1AF4 000:894 JLINK_ReadReg(XPSR)  returns 0x61000000 (0000ms, 0893ms total)
T1AF4 000:924 JLINK_WriteU8(0x400FC040, 0x01) -- CPU_WriteMem(1 bytes @ 0x400FC040)  returns 0x00 (0002ms, 0895ms total)
T1AF4 001:055 JLINK_SetResetType(JLINKARM_CM3_RESET_TYPE_NORMAL)  returns JLINKARM_CM3_RESET_TYPE_HALT_AFTER_BTL (0000ms, 0895ms total)
T1AF4 001:055 JLINK_Reset() -- CPU_WriteMem(4 bytes @ 0xE000EDF0) -- CPU_WriteMem(4 bytes @ 0xE000EDFC)Reset: Halt core after reset via DEMCR.VC_CORERESET.Reset: Reset device via AIRCR.SYSRESETREQ. -- CPU_WriteMem(4 bytes @ 0xE000ED0C) -- CPU_ReadMem(4 bytes @ 0xE000EDF0) -- CPU_ReadMem(4 bytes @ 0xE000EDF0) -- CPU_WriteMem(4 bytes @ 0xE000EDF0) -- CPU_WriteMem(4 bytes @ 0xE000EDFC) -- CPU_ReadMem(4 bytes @ 0xE000EDF0) -- CPU_WriteMem(4 bytes @ 0xE000EDFC) -- CPU_WriteMem(4 bytes @ 0xE0001028)
 -- CPU_WriteMem(4 bytes @ 0xE0001038) -- CPU_WriteMem(4 bytes @ 0xE0001048) -- CPU_WriteMem(4 bytes @ 0xE0001058) -- CPU_WriteMem(4 bytes @ 0xE000EDFC) -- CPU_WriteMem(4 bytes @ 0xE000EDFC) -- CPU_WriteMem(4 bytes @ 0xE000EDFC) -- CPU_WriteMem(4 bytes @ 0xE000EDFC) -- CPU_WriteMem(4 bytes @ 0xE000EDFC) -- CPU_WriteMem(4 bytes @ 0xE0001050) -- CPU_WriteMem(4 bytes @ 0xE0001054) -- CPU_WriteMem(4 bytes @ 0xE0001058) -- CPU_ReadMem(4 bytes @ 0xE0001000) -- CPU_WriteMem(4 bytes @ 0xE000EDFC)
 -- CPU_WriteMem(4 bytes @ 0xE0001058) -- CPU_ReadMem(4 bytes @ 0x00000004) -- CPU_ReadMem(4 bytes @ 0xE0002000) -- CPU_ReadMem(4 bytes @ 0xE0002008) -- CPU_ReadMem(4 bytes @ 0xE000200C) -- CPU_ReadMem(4 bytes @ 0xE0002010) -- CPU_ReadMem(4 bytes @ 0xE0002014) -- CPU_ReadMem(4 bytes @ 0xE0002018) -- CPU_ReadMem(4 bytes @ 0xE000201C) -- CPU_WriteMem(4 bytes @ 0xE0002000) -- CPU_WriteMem(4 bytes @ 0xE0002008) -- CPU_WriteMem(4 bytes @ 0xE000200C) -- CPU_WriteMem(4 bytes @ 0xE0002010)
 -- CPU_WriteMem(4 bytes @ 0xE0002014) -- CPU_WriteMem(4 bytes @ 0xE0002018) -- CPU_WriteMem(4 bytes @ 0xE000201C) -- CPU_ReadMem(4 bytes @ 0xE0001000) -- CPU_ReadMem(4 bytes @ 0x400FC040) -- CPU_WriteMem(4 bytes @ 0xE0002000) -- CPU_WriteMem(4 bytes @ 0xE0002008) -- CPU_WriteMem(4 bytes @ 0xE000200C) -- CPU_WriteMem(4 bytes @ 0xE0002010) -- CPU_WriteMem(4 bytes @ 0xE0002014) -- CPU_WriteMem(4 bytes @ 0xE0002018) -- CPU_WriteMem(4 bytes @ 0xE000201C) -- CPU_WriteMem(4 bytes @ 0xE0002000)
 -- CPU_ReadMem(4 bytes @ 0xE000EDFC) -- CPU_ReadMem(4 bytes @ 0xE0001000) (0324ms, 1219ms total)
T1AF4 001:379 JLINK_ReadReg(R15 (PC))  returns 0x000001AC (0000ms, 1219ms total)
T1AF4 001:379 JLINK_ReadReg(XPSR)  returns 0x61000000 (0000ms, 1219ms total)
T1AF4 001:641 JLINK_ReadMemEx(0x20098000, 0x0004 Bytes, ..., Flags = 0x02000004) -- CPU_ReadMem(4 bytes @ 0x20098000) - Data: 00 00 00 00  returns 0x04 (0001ms, 1220ms total)
T1AF4 001:642 JLINK_ReadMemEx(0x20098000, 0x0004 Bytes, ..., Flags = 0x02000004) -- CPU_ReadMem(4 bytes @ 0x20098000) - Data: 00 00 00 00  returns 0x04 (0001ms, 1221ms total)
T1AF4 001:643 JLINK_ReadMemEx(0x20098010, 0x0004 Bytes, ..., Flags = 0x02000004) -- CPU_ReadMem(4 bytes @ 0x20098010) - Data: 00 00 00 00  returns 0x04 (0001ms, 1222ms total)
T1AF4 001:644 JLINK_ReadMemEx(0x20098010, 0x0004 Bytes, ..., Flags = 0x02000004) -- CPU_ReadMem(4 bytes @ 0x20098010) - Data: 00 00 00 00  returns 0x04 (0001ms, 1223ms total)
T1AF4 001:645 JLINK_ReadMemEx(0x20098014, 0x0004 Bytes, ..., Flags = 0x02000004) -- CPU_ReadMem(4 bytes @ 0x20098014) - Data: 7F FC FF 07  returns 0x04 (0001ms, 1224ms total)
T1AF4 001:646 JLINK_ReadMemEx(0x20098014, 0x0004 Bytes, ..., Flags = 0x02000004) -- CPU_ReadMem(4 bytes @ 0x20098014) - Data: 7F FC FF 07  returns 0x04 (0001ms, 1225ms total)
T1AF4 001:647 JLINK_ReadMemEx(0x20098018, 0x0004 Bytes, ..., Flags = 0x02000004) -- CPU_ReadMem(4 bytes @ 0x20098018) - Data: 00 00 00 00  returns 0x04 (0001ms, 1226ms total)
T1AF4 001:648 JLINK_ReadMemEx(0x20098018, 0x0004 Bytes, ..., Flags = 0x02000004) -- CPU_ReadMem(4 bytes @ 0x20098018) - Data: 00 00 00 00  returns 0x04 (0001ms, 1227ms total)
T1AF4 001:649 JLINK_ReadMemEx(0x20098020, 0x0004 Bytes, ..., Flags = 0x02000004) -- CPU_ReadMem(4 bytes @ 0x20098020) - Data: 00 00 00 00  returns 0x04 (0000ms, 1227ms total)
T1AF4 001:649 JLINK_ReadMemEx(0x20098020, 0x0004 Bytes, ..., Flags = 0x02000004) -- CPU_ReadMem(4 bytes @ 0x20098020) - Data: 00 00 00 00  returns 0x04 (0001ms, 1228ms total)
T1AF4 001:650 JLINK_ReadMemEx(0x20098030, 0x0004 Bytes, ..., Flags = 0x02000004) -- CPU_ReadMem(4 bytes @ 0x20098030) - Data: 00 00 00 00  returns 0x04 (0001ms, 1229ms total)
T1AF4 001:651 JLINK_ReadMemEx(0x20098030, 0x0004 Bytes, ..., Flags = 0x02000004) -- CPU_ReadMem(4 bytes @ 0x20098030) - Data: 00 00 00 00  returns 0x04 (0001ms, 1230ms total)
T1AF4 001:652 JLINK_ReadMemEx(0x20098034, 0x0004 Bytes, ..., Flags = 0x02000004) -- CPU_ReadMem(4 bytes @ 0x20098034) - Data: FF FF FF FF  returns 0x04 (0001ms, 1231ms total)
T1AF4 001:653 JLINK_ReadMemEx(0x20098034, 0x0004 Bytes, ..., Flags = 0x02000004) -- CPU_ReadMem(4 bytes @ 0x20098034) - Data: FF FF FF FF  returns 0x04 (0001ms, 1232ms total)
T1AF4 001:654 JLINK_ReadMemEx(0x20098038, 0x0004 Bytes, ..., Flags = 0x02000004) -- CPU_ReadMem(4 bytes @ 0x20098038) - Data: 00 00 00 00  returns 0x04 (0001ms, 1233ms total)
T1AF4 001:655 JLINK_ReadMemEx(0x20098038, 0x0004 Bytes, ..., Flags = 0x02000004) -- CPU_ReadMem(4 bytes @ 0x20098038) - Data: 00 00 00 00  returns 0x04 (0001ms, 1234ms total)
T1AF4 001:656 JLINK_ReadMemEx(0x20098040, 0x0004 Bytes, ..., Flags = 0x02000004) -- CPU_ReadMem(4 bytes @ 0x20098040) - Data: 00 00 00 00  returns 0x04 (0001ms, 1235ms total)
T1AF4 001:657 JLINK_ReadMemEx(0x20098040, 0x0004 Bytes, ..., Flags = 0x02000004) -- CPU_ReadMem(4 bytes @ 0x20098040) - Data: 00 00 00 00  returns 0x04 (0001ms, 1236ms total)
T1AF4 001:658 JLINK_ReadMemEx(0x20098050, 0x0004 Bytes, ..., Flags = 0x02000004) -- CPU_ReadMem(4 bytes @ 0x20098050) - Data: 00 00 00 00  returns 0x04 (0001ms, 1237ms total)
T1AF4 001:659 JLINK_ReadMemEx(0x20098050, 0x0004 Bytes, ..., Flags = 0x02000004) -- CPU_ReadMem(4 bytes @ 0x20098050) - Data: 00 00 00 00  returns 0x04 (0000ms, 1237ms total)
T1AF4 001:659 JLINK_ReadMemEx(0x20098054, 0x0004 Bytes, ..., Flags = 0x02000004) -- CPU_ReadMem(4 bytes @ 0x20098054) - Data: FF FF FF FF  returns 0x04 (0001ms, 1238ms total)
T1AF4 001:660 JLINK_ReadMemEx(0x20098054, 0x0004 Bytes, ..., Flags = 0x02000004) -- CPU_ReadMem(4 bytes @ 0x20098054) - Data: FF FF FF FF  returns 0x04 (0002ms, 1240ms total)
T1AF4 001:662 JLINK_ReadMemEx(0x20098058, 0x0004 Bytes, ..., Flags = 0x02000004) -- CPU_ReadMem(4 bytes @ 0x20098058) - Data: 00 00 00 00  returns 0x04 (0000ms, 1240ms total)
T1AF4 001:662 JLINK_ReadMemEx(0x20098058, 0x0004 Bytes, ..., Flags = 0x02000004) -- CPU_ReadMem(4 bytes @ 0x20098058) - Data: 00 00 00 00  returns 0x04 (0001ms, 1241ms total)
T1AF4 001:663 JLINK_ReadMemEx(0x20098060, 0x0004 Bytes, ..., Flags = 0x02000004) -- CPU_ReadMem(4 bytes @ 0x20098060) - Data: 00 00 00 00  returns 0x04 (0001ms, 1242ms total)
T1AF4 001:664 JLINK_ReadMemEx(0x20098060, 0x0004 Bytes, ..., Flags = 0x02000004) -- CPU_ReadMem(4 bytes @ 0x20098060) - Data: 00 00 00 00  returns 0x04 (0001ms, 1243ms total)
T1AF4 001:665 JLINK_ReadMemEx(0x20098070, 0x0004 Bytes, ..., Flags = 0x02000004) -- CPU_ReadMem(4 bytes @ 0x20098070) - Data: 00 00 00 00  returns 0x04 (0001ms, 1244ms total)
T1AF4 001:666 JLINK_ReadMemEx(0x20098070, 0x0004 Bytes, ..., Flags = 0x02000004) -- CPU_ReadMem(4 bytes @ 0x20098070) - Data: 00 00 00 00  returns 0x04 (0001ms, 1245ms total)
T1AF4 001:667 JLINK_ReadMemEx(0x20098074, 0x0004 Bytes, ..., Flags = 0x02000004) -- CPU_ReadMem(4 bytes @ 0x20098074) - Data: FF FF FF FF  returns 0x04 (0001ms, 1246ms total)
T1AF4 001:668 JLINK_ReadMemEx(0x20098074, 0x0004 Bytes, ..., Flags = 0x02000004) -- CPU_ReadMem(4 bytes @ 0x20098074) - Data: FF FF FF FF  returns 0x04 (0001ms, 1247ms total)
T1AF4 001:669 JLINK_ReadMemEx(0x20098078, 0x0004 Bytes, ..., Flags = 0x02000004) -- CPU_ReadMem(4 bytes @ 0x20098078) - Data: 00 00 00 00  returns 0x04 (0000ms, 1247ms total)
T1AF4 001:669 JLINK_ReadMemEx(0x20098078, 0x0004 Bytes, ..., Flags = 0x02000004) -- CPU_ReadMem(4 bytes @ 0x20098078) - Data: 00 00 00 00  returns 0x04 (0001ms, 1248ms total)
T1AF4 001:670 JLINK_ReadMemEx(0x20098080, 0x0004 Bytes, ..., Flags = 0x02000004) -- CPU_ReadMem(4 bytes @ 0x20098080) - Data: 00 00 00 00  returns 0x04 (0001ms, 1249ms total)
T1AF4 001:671 JLINK_ReadMemEx(0x20098080, 0x0004 Bytes, ..., Flags = 0x02000004) -- CPU_ReadMem(4 bytes @ 0x20098080) - Data: 00 00 00 00  returns 0x04 (0001ms, 1250ms total)
T1AF4 001:672 JLINK_ReadMemEx(0x20098090, 0x0004 Bytes, ..., Flags = 0x02000004) -- CPU_ReadMem(4 bytes @ 0x20098090) - Data: 00 00 00 00  returns 0x04 (0001ms, 1251ms total)
T1AF4 001:673 JLINK_ReadMemEx(0x20098090, 0x0004 Bytes, ..., Flags = 0x02000004) -- CPU_ReadMem(4 bytes @ 0x20098090) - Data: 00 00 00 00  returns 0x04 (0001ms, 1252ms total)
T1AF4 001:674 JLINK_ReadMemEx(0x20098094, 0x0004 Bytes, ..., Flags = 0x02000004) -- CPU_ReadMem(4 bytes @ 0x20098094) - Data: FF FF FF DF  returns 0x04 (0001ms, 1253ms total)
T1AF4 001:675 JLINK_ReadMemEx(0x20098094, 0x0004 Bytes, ..., Flags = 0x02000004) -- CPU_ReadMem(4 bytes @ 0x20098094) - Data: FF FF FF DF  returns 0x04 (0001ms, 1254ms total)
T1AF4 001:676 JLINK_ReadMemEx(0x20098098, 0x0004 Bytes, ..., Flags = 0x02000004) -- CPU_ReadMem(4 bytes @ 0x20098098) - Data: 00 00 00 00  returns 0x04 (0001ms, 1255ms total)
T1AF4 001:677 JLINK_ReadMemEx(0x20098098, 0x0004 Bytes, ..., Flags = 0x02000004) -- CPU_ReadMem(4 bytes @ 0x20098098) - Data: 00 00 00 00  returns 0x04 (0001ms, 1256ms total)
T1AF4 001:678 JLINK_ReadMemEx(0x200980A0, 0x0004 Bytes, ..., Flags = 0x02000004) -- CPU_ReadMem(4 bytes @ 0x200980A0) - Data: 00 00 00 00  returns 0x04 (0000ms, 1256ms total)
T1AF4 001:678 JLINK_ReadMemEx(0x200980A0, 0x0004 Bytes, ..., Flags = 0x02000004) -- CPU_ReadMem(4 bytes @ 0x200980A0) - Data: 00 00 00 00  returns 0x04 (0001ms, 1257ms total)
T1AF4 001:679 JLINK_ReadMemEx(0x200980B0, 0x0004 Bytes, ..., Flags = 0x02000004) -- CPU_ReadMem(4 bytes @ 0x200980B0) - Data: 00 00 00 00  returns 0x04 (0001ms, 1258ms total)
T1AF4 001:680 JLINK_ReadMemEx(0x200980B0, 0x0004 Bytes, ..., Flags = 0x02000004) -- CPU_ReadMem(4 bytes @ 0x200980B0) - Data: 00 00 00 00  returns 0x04 (0001ms, 1259ms total)
T1AF4 001:681 JLINK_ReadMemEx(0x200980B4, 0x0004 Bytes, ..., Flags = 0x02000004) -- CPU_ReadMem(4 bytes @ 0x200980B4) - Data: 13 00 00 00  returns 0x04 (0001ms, 1260ms total)
T1AF4 001:682 JLINK_ReadMemEx(0x200980B4, 0x0004 Bytes, ..., Flags = 0x02000004) -- CPU_ReadMem(4 bytes @ 0x200980B4) - Data: 13 00 00 00  returns 0x04 (0000ms, 1260ms total)
T1AF4 001:683 JLINK_ReadMemEx(0x200980B8, 0x0004 Bytes, ..., Flags = 0x02000004) -- CPU_ReadMem(4 bytes @ 0x200980B8) - Data: 00 00 00 00  returns 0x04 (0000ms, 1260ms total)
T1AF4 001:683 JLINK_ReadMemEx(0x200980B8, 0x0004 Bytes, ..., Flags = 0x02000004) -- CPU_ReadMem(4 bytes @ 0x200980B8) - Data: 00 00 00 00  returns 0x04 (0001ms, 1261ms total)
T1AF4 001:724 JLINK_ReadMemEx(0x400FC000, 0x0004 Bytes, ..., Flags = 0x02000004) -- CPU_ReadMem(4 bytes @ 0x400FC000) - Data: 3A 30 00 00  returns 0x04 (0001ms, 1262ms total)
T1AF4 001:725 JLINK_ReadMemEx(0x400FC000, 0x0004 Bytes, ..., Flags = 0x02000004) -- CPU_ReadMem(4 bytes @ 0x400FC000) - Data: 3A 30 00 00  returns 0x04 (0001ms, 1263ms total)
T1AF4 001:726 JLINK_ReadMemEx(0x400FC080, 0x0004 Bytes, ..., Flags = 0x02000004) -- CPU_ReadMem(4 bytes @ 0x400FC080) - Data: 00 00 00 00  returns 0x04 (0001ms, 1264ms total)
T1AF4 001:727 JLINK_ReadMemEx(0x400FC080, 0x0004 Bytes, ..., Flags = 0x02000004) -- CPU_ReadMem(4 bytes @ 0x400FC080) - Data: 00 00 00 00  returns 0x04 (0001ms, 1265ms total)
T1AF4 001:728 JLINK_ReadMemEx(0x400FC084, 0x0004 Bytes, ..., Flags = 0x02000004) -- CPU_ReadMem(4 bytes @ 0x400FC084) - Data: 00 00 00 00  returns 0x04 (0001ms, 1266ms total)
T1AF4 001:729 JLINK_ReadMemEx(0x400FC084, 0x0004 Bytes, ..., Flags = 0x02000004) -- CPU_ReadMem(4 bytes @ 0x400FC084) - Data: 00 00 00 00  returns 0x04 (0001ms, 1267ms total)
T1AF4 001:730 JLINK_ReadMemEx(0x400FC088, 0x0004 Bytes, ..., Flags = 0x02000004) -- CPU_ReadMem(4 bytes @ 0x400FC088) - Data: 00 00 00 00  returns 0x04 (0001ms, 1268ms total)
T1AF4 001:731 JLINK_ReadMemEx(0x400FC088, 0x0004 Bytes, ..., Flags = 0x02000004) -- CPU_ReadMem(4 bytes @ 0x400FC088) - Data: 00 00 00 00  returns 0x04 (0001ms, 1269ms total)
T1AF4 001:732 JLINK_ReadMemEx(0x400FC0A0, 0x0004 Bytes, ..., Flags = 0x02000004) -- CPU_ReadMem(4 bytes @ 0x400FC0A0) - Data: 00 00 00 00  returns 0x04 (0000ms, 1269ms total)
T1AF4 001:732 JLINK_ReadMemEx(0x400FC0A0, 0x0004 Bytes, ..., Flags = 0x02000004) -- CPU_ReadMem(4 bytes @ 0x400FC0A0) - Data: 00 00 00 00  returns 0x04 (0001ms, 1270ms total)
T1AF4 001:733 JLINK_ReadMemEx(0x400FC0A4, 0x0004 Bytes, ..., Flags = 0x02000004) -- CPU_ReadMem(4 bytes @ 0x400FC0A4) - Data: 00 00 00 00  returns 0x04 (0001ms, 1271ms total)
T1AF4 001:734 JLINK_ReadMemEx(0x400FC0A4, 0x0004 Bytes, ..., Flags = 0x02000004) -- CPU_ReadMem(4 bytes @ 0x400FC0A4) - Data: 00 00 00 00  returns 0x04 (0001ms, 1272ms total)
T1AF4 001:735 JLINK_ReadMemEx(0x400FC0A8, 0x0004 Bytes, ..., Flags = 0x02000004) -- CPU_ReadMem(4 bytes @ 0x400FC0A8) - Data: 00 00 00 00  returns 0x04 (0001ms, 1273ms total)
T1AF4 001:736 JLINK_ReadMemEx(0x400FC0A8, 0x0004 Bytes, ..., Flags = 0x02000004) -- CPU_ReadMem(4 bytes @ 0x400FC0A8) - Data: 00 00 00 00  returns 0x04 (0001ms, 1274ms total)
T1AF4 001:737 JLINK_ReadMemEx(0x400FC0C0, 0x0008 Bytes, ..., Flags = 0x02000004) -- CPU_ReadMem(8 bytes @ 0x400FC0C0) - Data: 00 00 00 00 DE 8F 28 04  returns 0x08 (0001ms, 1275ms total)
T1AF4 001:738 JLINK_ReadMemEx(0x400FC0C0, 0x0004 Bytes, ..., Flags = 0x02000004) -- CPU_ReadMem(4 bytes @ 0x400FC0C0) - Data: 00 00 00 00  returns 0x04 (0001ms, 1276ms total)
T1AF4 001:739 JLINK_ReadMemEx(0x400FC0C4, 0x0004 Bytes, ..., Flags = 0x02000004) -- CPU_ReadMem(4 bytes @ 0x400FC0C4) - Data: DE 8F 28 04  returns 0x04 (0000ms, 1276ms total)
T1AF4 001:739 JLINK_ReadMemEx(0x400FC0C8, 0x0004 Bytes, ..., Flags = 0x02000004) -- CPU_ReadMem(4 bytes @ 0x400FC0C8) - Data: 00 00 00 00  returns 0x04 (0001ms, 1277ms total)
T1AF4 001:740 JLINK_ReadMemEx(0x400FC0C8, 0x0004 Bytes, ..., Flags = 0x02000004) -- CPU_ReadMem(4 bytes @ 0x400FC0C8) - Data: 00 00 00 00  returns 0x04 (0001ms, 1278ms total)
T1AF4 001:741 JLINK_ReadMemEx(0x400FC100, 0x0014 Bytes, ..., Flags = 0x02000004) -- CPU_ReadMem(20 bytes @ 0x400FC100) - Data: 00 00 00 00 01 00 00 00 00 00 00 00 00 00 00 00 ...  returns 0x14 (0001ms, 1279ms total)
T1AF4 001:742 JLINK_ReadMemEx(0x400FC100, 0x0004 Bytes, ..., Flags = 0x02000004) -- CPU_ReadMem(4 bytes @ 0x400FC100) - Data: 00 00 00 00  returns 0x04 (0001ms, 1280ms total)
T1AF4 001:743 JLINK_ReadMemEx(0x400FC104, 0x0004 Bytes, ..., Flags = 0x02000004) -- CPU_ReadMem(4 bytes @ 0x400FC104) - Data: 01 00 00 00  returns 0x04 (0001ms, 1281ms total)
T1AF4 001:744 JLINK_ReadMemEx(0x400FC108, 0x0004 Bytes, ..., Flags = 0x02000004) -- CPU_ReadMem(4 bytes @ 0x400FC108) - Data: 00 00 00 00  returns 0x04 (0000ms, 1281ms total)
T1AF4 001:744 JLINK_ReadMemEx(0x400FC10C, 0x0004 Bytes, ..., Flags = 0x02000004) -- CPU_ReadMem(4 bytes @ 0x400FC10C) - Data: 00 00 00 00  returns 0x04 (0001ms, 1282ms total)
T1AF4 001:745 JLINK_ReadMemEx(0x400FC110, 0x0004 Bytes, ..., Flags = 0x02000004) -- CPU_ReadMem(4 bytes @ 0x400FC110) - Data: 00 00 00 00  returns 0x04 (0001ms, 1283ms total)
T1AF4 001:746 JLINK_ReadMemEx(0x400FC114, 0x0004 Bytes, ..., Flags = 0x02000004) -- CPU_ReadMem(4 bytes @ 0x400FC114) - Data: 00 00 00 00  returns 0x04 (0001ms, 1284ms total)
T1AF4 001:747 JLINK_ReadMemEx(0x400FC114, 0x0004 Bytes, ..., Flags = 0x02000004) -- CPU_ReadMem(4 bytes @ 0x400FC114) - Data: 00 00 00 00  returns 0x04 (0001ms, 1285ms total)
T1AF4 001:748 JLINK_ReadMemEx(0x400FC140, 0x0004 Bytes, ..., Flags = 0x02000004) -- CPU_ReadMem(4 bytes @ 0x400FC140) - Data: 00 00 00 00  returns 0x04 (0001ms, 1286ms total)
T1AF4 001:749 JLINK_ReadMemEx(0x400FC140, 0x0004 Bytes, ..., Flags = 0x02000004) -- CPU_ReadMem(4 bytes @ 0x400FC140) - Data: 00 00 00 00  returns 0x04 (0000ms, 1286ms total)
T1AF4 001:749 JLINK_ReadMemEx(0x400FC148, 0x0004 Bytes, ..., Flags = 0x02000004) -- CPU_ReadMem(4 bytes @ 0x400FC148) - Data: 00 00 00 00  returns 0x04 (0001ms, 1287ms total)
T1AF4 001:750 JLINK_ReadMemEx(0x400FC148, 0x0004 Bytes, ..., Flags = 0x02000004) -- CPU_ReadMem(4 bytes @ 0x400FC148) - Data: 00 00 00 00  returns 0x04 (0001ms, 1288ms total)
T1AF4 001:751 JLINK_ReadMemEx(0x400FC14C, 0x0004 Bytes, ..., Flags = 0x02000004) -- CPU_ReadMem(4 bytes @ 0x400FC14C) - Data: 00 00 00 00  returns 0x04 (0001ms, 1289ms total)
T1AF4 001:752 JLINK_ReadMemEx(0x400FC14C, 0x0004 Bytes, ..., Flags = 0x02000004) -- CPU_ReadMem(4 bytes @ 0x400FC14C) - Data: 00 00 00 00  returns 0x04 (0001ms, 1290ms total)
T1AF4 001:753 JLINK_ReadMemEx(0x400FC180, 0x0004 Bytes, ..., Flags = 0x02000004) -- CPU_ReadMem(4 bytes @ 0x400FC180) - Data: 13 00 00 00  returns 0x04 (0001ms, 1291ms total)
T1AF4 001:754 JLINK_ReadMemEx(0x400FC180, 0x0004 Bytes, ..., Flags = 0x02000004) -- CPU_ReadMem(4 bytes @ 0x400FC180) - Data: 13 00 00 00  returns 0x04 (0001ms, 1292ms total)
T1AF4 001:755 JLINK_ReadMemEx(0x400FC188, 0x0004 Bytes, ..., Flags = 0x02000004) -- CPU_ReadMem(4 bytes @ 0x400FC188) - Data: 04 00 01 00  returns 0x04 (0001ms, 1293ms total)
T1AF4 001:756 JLINK_ReadMemEx(0x400FC188, 0x0004 Bytes, ..., Flags = 0x02000004) -- CPU_ReadMem(4 bytes @ 0x400FC188) - Data: 04 00 01 00  returns 0x04 (0001ms, 1294ms total)
T1AF4 001:757 JLINK_ReadMemEx(0x400FC1A0, 0x0004 Bytes, ..., Flags = 0x02000004) -- CPU_ReadMem(4 bytes @ 0x400FC1A0) - Data: 01 00 00 00  returns 0x04 (0000ms, 1294ms total)
T1AF4 001:757 JLINK_ReadMemEx(0x400FC1A0, 0x0004 Bytes, ..., Flags = 0x02000004) -- CPU_ReadMem(4 bytes @ 0x400FC1A0) - Data: 01 00 00 00  returns 0x04 (0001ms, 1295ms total)
T1AF4 001:758 JLINK_ReadMemEx(0x400FC1A8, 0x0004 Bytes, ..., Flags = 0x02000004) -- CPU_ReadMem(4 bytes @ 0x400FC1A8) - Data: 04 00 00 00  returns 0x04 (0001ms, 1296ms total)
T1AF4 001:759 JLINK_ReadMemEx(0x400FC1A8, 0x0004 Bytes, ..., Flags = 0x02000004) -- CPU_ReadMem(4 bytes @ 0x400FC1A8) - Data: 04 00 00 00  returns 0x04 (0001ms, 1297ms total)
T1AF4 001:760 JLINK_ReadMemEx(0x400FC1B0, 0x0008 Bytes, ..., Flags = 0x02000004) -- CPU_ReadMem(8 bytes @ 0x400FC1B0) - Data: 03 00 00 00 00 00 00 00  returns 0x08 (0001ms, 1298ms total)
T1AF4 001:761 JLINK_ReadMemEx(0x400FC1B0, 0x0004 Bytes, ..., Flags = 0x02000004) -- CPU_ReadMem(4 bytes @ 0x400FC1B0) - Data: 03 00 00 00  returns 0x04 (0001ms, 1299ms total)
T1AF4 001:762 JLINK_ReadMemEx(0x400FC1B4, 0x0004 Bytes, ..., Flags = 0x02000004) -- CPU_ReadMem(4 bytes @ 0x400FC1B4) - Data: 00 00 00 00  returns 0x04 (0001ms, 1300ms total)
T1AF4 001:763 JLINK_ReadMemEx(0x400FC1B8, 0x0004 Bytes, ..., Flags = 0x02000004) -- CPU_ReadMem(4 bytes @ 0x400FC1B8) - Data: 00 00 00 00  returns 0x04 (0000ms, 1300ms total)
T1AF4 001:763 JLINK_ReadMemEx(0x400FC1B8, 0x0004 Bytes, ..., Flags = 0x02000004) -- CPU_ReadMem(4 bytes @ 0x400FC1B8) - Data: 00 00 00 00  returns 0x04 (0001ms, 1301ms total)
T1AF4 001:764 JLINK_ReadMemEx(0x400FC1C0, 0x0010 Bytes, ..., Flags = 0x02000004) -- CPU_ReadMem(16 bytes @ 0x400FC1C0) - Data: 00 01 00 80 00 00 00 00 00 00 00 00 00 00 00 00  returns 0x10 (0001ms, 1302ms total)
T1AF4 001:765 JLINK_ReadMemEx(0x400FC1C0, 0x0004 Bytes, ..., Flags = 0x02000004) -- CPU_ReadMem(4 bytes @ 0x400FC1C0) - Data: 00 01 00 80  returns 0x04 (0000ms, 1302ms total)
T1AF4 001:765 JLINK_ReadMemEx(0x400FC1C4, 0x0004 Bytes, ..., Flags = 0x02000004) -- CPU_ReadMem(4 bytes @ 0x400FC1C4) - Data: 00 00 00 00  returns 0x04 (0001ms, 1303ms total)
T1AF4 001:766 JLINK_ReadMemEx(0x400FC1C8, 0x0004 Bytes, ..., Flags = 0x02000004) -- CPU_ReadMem(4 bytes @ 0x400FC1C8) - Data: 00 00 00 00  returns 0x04 (0002ms, 1305ms total)
T1AF4 001:768 JLINK_ReadMemEx(0x400FC1CC, 0x0004 Bytes, ..., Flags = 0x02000004) -- CPU_ReadMem(4 bytes @ 0x400FC1CC) - Data: 00 00 00 00  returns 0x04 (0001ms, 1306ms total)
T1AF4 001:769 JLINK_ReadMemEx(0x400FC1D0, 0x0004 Bytes, ..., Flags = 0x02000004) -- CPU_ReadMem(4 bytes @ 0x400FC1D0) - Data: 00 00 00 00  returns 0x04 (0001ms, 1307ms total)
T1AF4 001:770 JLINK_ReadMemEx(0x400FC1D0, 0x0004 Bytes, ..., Flags = 0x02000004) -- CPU_ReadMem(4 bytes @ 0x400FC1D0) - Data: 00 00 00 00  returns 0x04 (0001ms, 1308ms total)
T1AF4 001:771 JLINK_ReadMemEx(0x400FC1DC, 0x0004 Bytes, ..., Flags = 0x02000004) -- CPU_ReadMem(4 bytes @ 0x400FC1DC) - Data: 10 02 00 00  returns 0x04 (0001ms, 1309ms total)
T1AF4 001:772 JLINK_ReadMemEx(0x400FC1DC, 0x0004 Bytes, ..., Flags = 0x02000004) -- CPU_ReadMem(4 bytes @ 0x400FC1DC) - Data: 10 02 00 00  returns 0x04 (0000ms, 1309ms total)
T1AF4 001:772 JLINK_ReadMemEx(0x400FC1E0, 0x0004 Bytes, ..., Flags = 0x02000004) -- CPU_ReadMem(4 bytes @ 0x400FC1E0) - Data: 00 1F 00 00  returns 0x04 (0001ms, 1310ms total)
T1AF4 001:773 JLINK_ReadMemEx(0x400FC1E0, 0x0004 Bytes, ..., Flags = 0x02000004) -- CPU_ReadMem(4 bytes @ 0x400FC1E0) - Data: 00 1F 00 00  returns 0x04 (0001ms, 1311ms total)
T1AF4 001:813 JLINK_ReadMemEx(0x4000C000, 0x000C Bytes, ..., Flags = 0x02000004) -- CPU_ReadMem(12 bytes @ 0x4000C000) - Data: 00 00 00 00 00 00 00 00 01 00 00 00  returns 0x0C (0001ms, 1312ms total)
T1AF4 001:814 JLINK_ReadMemEx(0x4000C000, 0x0004 Bytes, ..., Flags = 0x02000004) -- CPU_ReadMem(4 bytes @ 0x4000C000) - Data: 00 00 00 00  returns 0x04 (0002ms, 1314ms total)
T1AF4 001:816 JLINK_ReadMemEx(0x4000C004, 0x0004 Bytes, ..., Flags = 0x02000004) -- CPU_ReadMem(4 bytes @ 0x4000C004) - Data: 00 00 00 00  returns 0x04 (0001ms, 1315ms total)
T1AF4 001:817 JLINK_ReadMemEx(0x4000C008, 0x0004 Bytes, ..., Flags = 0x02000004) -- CPU_ReadMem(4 bytes @ 0x4000C008) - Data: 01 00 00 00  returns 0x04 (0000ms, 1315ms total)
T1AF4 001:817 JLINK_ReadMemEx(0x4000C00C, 0x0004 Bytes, ..., Flags = 0x02000004) -- CPU_ReadMem(4 bytes @ 0x4000C00C) - Data: 00 00 00 00  returns 0x04 (0001ms, 1316ms total)
T1AF4 001:818 JLINK_ReadMemEx(0x4000C00C, 0x0004 Bytes, ..., Flags = 0x02000004) -- CPU_ReadMem(4 bytes @ 0x4000C00C) - Data: 00 00 00 00  returns 0x04 (0001ms, 1317ms total)
T1AF4 001:819 JLINK_ReadMemEx(0x4000C01C, 0x0004 Bytes, ..., Flags = 0x02000004) -- CPU_ReadMem(4 bytes @ 0x4000C01C) - Data: 00 00 00 00  returns 0x04 (0001ms, 1318ms total)
T1AF4 001:820 JLINK_ReadMemEx(0x4000C01C, 0x0004 Bytes, ..., Flags = 0x02000004) -- CPU_ReadMem(4 bytes @ 0x4000C01C) - Data: 00 00 00 00  returns 0x04 (0001ms, 1319ms total)
T1AF4 001:821 JLINK_ReadMemEx(0x4000C020, 0x0004 Bytes, ..., Flags = 0x02000004) -- CPU_ReadMem(4 bytes @ 0x4000C020) - Data: 00 00 00 00  returns 0x04 (0001ms, 1320ms total)
T1AF4 001:822 JLINK_ReadMemEx(0x4000C020, 0x0004 Bytes, ..., Flags = 0x02000004) -- CPU_ReadMem(4 bytes @ 0x4000C020) - Data: 00 00 00 00  returns 0x04 (0001ms, 1321ms total)
T1AF4 001:823 JLINK_ReadMemEx(0x4000C028, 0x0004 Bytes, ..., Flags = 0x02000004) -- CPU_ReadMem(4 bytes @ 0x4000C028) - Data: 10 00 00 00  returns 0x04 (0001ms, 1322ms total)
T1AF4 001:824 JLINK_ReadMemEx(0x4000C028, 0x0004 Bytes, ..., Flags = 0x02000004) -- CPU_ReadMem(4 bytes @ 0x4000C028) - Data: 10 00 00 00  returns 0x04 (0001ms, 1323ms total)
T1AF4 001:825 JLINK_ReadMemEx(0x4000C030, 0x0004 Bytes, ..., Flags = 0x02000004) -- CPU_ReadMem(4 bytes @ 0x4000C030) - Data: 80 00 00 00  returns 0x04 (0000ms, 1323ms total)
T1AF4 001:825 JLINK_ReadMemEx(0x4000C030, 0x0004 Bytes, ..., Flags = 0x02000004) -- CPU_ReadMem(4 bytes @ 0x4000C030) - Data: 80 00 00 00  returns 0x04 (0001ms, 1324ms total)
T1AF4 001:826 JLINK_ReadMemEx(0x4000C04C, 0x0008 Bytes, ..., Flags = 0x02000004) -- CPU_ReadMem(8 bytes @ 0x4000C04C) - Data: 00 00 00 00 00 00 00 00  returns 0x08 (0001ms, 1325ms total)
T1AF4 001:827 JLINK_ReadMemEx(0x4000C04C, 0x0004 Bytes, ..., Flags = 0x02000004) -- CPU_ReadMem(4 bytes @ 0x4000C04C) - Data: 00 00 00 00  returns 0x04 (0001ms, 1326ms total)
T1AF4 001:828 JLINK_ReadMemEx(0x4000C050, 0x0004 Bytes, ..., Flags = 0x02000004) -- CPU_ReadMem(4 bytes @ 0x4000C050) - Data: 00 00 00 00  returns 0x04 (0001ms, 1327ms total)
T1AF4 001:829 JLINK_ReadMemEx(0x4000C054, 0x0004 Bytes, ..., Flags = 0x02000004) -- CPU_ReadMem(4 bytes @ 0x4000C054) - Data: 00 00 00 00  returns 0x04 (0001ms, 1328ms total)
T1AF4 001:830 JLINK_ReadMemEx(0x4000C054, 0x0004 Bytes, ..., Flags = 0x02000004) -- CPU_ReadMem(4 bytes @ 0x4000C054) - Data: 00 00 00 00  returns 0x04 (0001ms, 1329ms total)
T1AF4 003:248 JLINK_ReadReg(R0)  returns 0x00000000 (0001ms, 1330ms total)
T1AF4 003:249 JLINK_ReadReg(R1)  returns 0x000001AD (0000ms, 1330ms total)
T1AF4 003:249 JLINK_ReadReg(R2)  returns 0xDFFFB126 (0000ms, 1330ms total)
T1AF4 003:249 JLINK_ReadReg(R3)  returns 0x0010043C (0000ms, 1330ms total)
T1AF4 003:249 JLINK_ReadReg(R4)  returns 0x47193F47 (0000ms, 1330ms total)
T1AF4 003:249 JLINK_ReadReg(R5)  returns 0x3456ABCD (0000ms, 1330ms total)
T1AF4 003:249 JLINK_ReadReg(R6)  returns 0x12345678 (0000ms, 1330ms total)
T1AF4 003:249 JLINK_ReadReg(R7)  returns 0x00000000 (0000ms, 1330ms total)
T1AF4 003:249 JLINK_ReadReg(R8)  returns 0x00000000 (0000ms, 1330ms total)
T1AF4 003:249 JLINK_ReadReg(R9)  returns 0x47884042 (0000ms, 1330ms total)
T1AF4 003:249 JLINK_ReadReg(R10)  returns 0x000134AC (0000ms, 1330ms total)
T1AF4 003:249 JLINK_ReadReg(R11)  returns 0x00000000 (0000ms, 1330ms total)
T1AF4 003:249 JLINK_ReadReg(R12)  returns 0x00000000 (0000ms, 1330ms total)
T1AF4 003:249 JLINK_ReadReg(R13 (SP))  returns 0x20004490 (0000ms, 1330ms total)
T1AF4 003:249 JLINK_ReadReg(R14)  returns 0x1FFF0469 (0000ms, 1330ms total)
T1AF4 003:249 JLINK_ReadReg(R15 (PC))  returns 0x000001AC (0000ms, 1330ms total)
T1AF4 003:249 JLINK_ReadReg(XPSR)  returns 0x61000000 (0000ms, 1330ms total)
T1AF4 003:249 JLINK_ReadReg(MSP)  returns 0x20004490 (0000ms, 1330ms total)
T1AF4 003:249 JLINK_ReadReg(PSP)  returns 0x1BDDD134 (0000ms, 1330ms total)
T1AF4 003:249 JLINK_ReadReg(CFBP)  returns 0x00000000 (0000ms, 1330ms total)
T1AF4 003:249 JLINK_ReadReg(FPSCR)  returns 0x00000000 (0006ms, 1336ms total)
T1AF4 003:255 JLINK_ReadReg(FPS0)  returns 0x80000000 (0000ms, 1336ms total)
T1AF4 003:255 JLINK_ReadReg(FPS1)  returns 0x3FE02734 (0000ms, 1336ms total)
T1AF4 003:255 JLINK_ReadReg(FPS2)  returns 0x3F0139A4 (0000ms, 1336ms total)
T1AF4 003:255 JLINK_ReadReg(FPS3)  returns 0xACD5EB26 (0000ms, 1336ms total)
T1AF4 003:255 JLINK_ReadReg(FPS4)  returns 0xFD91DE3E (0000ms, 1336ms total)
T1AF4 003:255 JLINK_ReadReg(FPS5)  returns 0xB396F07B (0000ms, 1336ms total)
T1AF4 003:255 JLINK_ReadReg(FPS6)  returns 0xF4965923 (0000ms, 1336ms total)
T1AF4 003:255 JLINK_ReadReg(FPS7)  returns 0xD29978E2 (0000ms, 1336ms total)
T1AF4 003:255 JLINK_ReadReg(FPS8)  returns 0xEC1D69E0 (0000ms, 1336ms total)
T1AF4 003:255 JLINK_ReadReg(FPS9)  returns 0xE6CA4CA3 (0000ms, 1336ms total)
T1AF4 003:255 JLINK_ReadReg(FPS10)  returns 0x8B4B455E (0000ms, 1336ms total)
T1AF4 003:255 JLINK_ReadReg(FPS11)  returns 0x61AD6570 (0000ms, 1336ms total)
T1AF4 003:255 JLINK_ReadReg(FPS12)  returns 0xF3321B1C (0000ms, 1336ms total)
T1AF4 003:255 JLINK_ReadReg(FPS13)  returns 0xFF88AA28 (0000ms, 1336ms total)
T1AF4 003:255 JLINK_ReadReg(FPS14)  returns 0xD0E9421E (0000ms, 1336ms total)
T1AF4 003:255 JLINK_ReadReg(FPS15)  returns 0x7BA1DB82 (0000ms, 1336ms total)
T1AF4 003:255 JLINK_ReadReg(FPS16)  returns 0x2FB0E05A (0000ms, 1336ms total)
T1AF4 003:255 JLINK_ReadReg(FPS17)  returns 0x0362797B (0000ms, 1336ms total)
T1AF4 003:255 JLINK_ReadReg(FPS18)  returns 0x0CA67FF5 (0000ms, 1336ms total)
T1AF4 003:255 JLINK_ReadReg(FPS19)  returns 0x65DDD4B1 (0000ms, 1336ms total)
T1AF4 003:255 JLINK_ReadReg(FPS20)  returns 0x8E4FE5D9 (0000ms, 1336ms total)
T1AF4 003:255 JLINK_ReadReg(FPS21)  returns 0x1E3F9AB5 (0000ms, 1336ms total)
T1AF4 003:255 JLINK_ReadReg(FPS22)  returns 0x7346DDF1 (0000ms, 1336ms total)
T1AF4 003:255 JLINK_ReadReg(FPS23)  returns 0xC3FDD626 (0000ms, 1336ms total)
T1AF4 003:255 JLINK_ReadReg(FPS24)  returns 0x579AA31F (0000ms, 1336ms total)
T1AF4 003:255 JLINK_ReadReg(FPS25)  returns 0x32D8C0E3 (0000ms, 1336ms total)
T1AF4 003:255 JLINK_ReadReg(FPS26)  returns 0x65698E8D (0000ms, 1336ms total)
T1AF4 003:255 JLINK_ReadReg(FPS27)  returns 0xAE7E6BD2 (0000ms, 1336ms total)
T1AF4 003:255 JLINK_ReadReg(FPS28)  returns 0xC6D44CAF (0000ms, 1336ms total)
T1AF4 003:255 JLINK_ReadReg(FPS29)  returns 0xFEDFACA3 (0000ms, 1336ms total)
T1AF4 003:255 JLINK_ReadReg(FPS30)  returns 0xCF452F85 (0000ms, 1336ms total)
T1AF4 003:255 JLINK_ReadReg(FPS31)  returns 0x7AB9E56F (0000ms, 1336ms total)
T1AF4 003:255 JLINK_ReadMemEx(0x20000000, 0x0004 Bytes, ..., Flags = 0x02000000) -- CPU_ReadMem(64 bytes @ 0x20000000) -- Updating C cache (64 bytes @ 0x20000000) -- Read from C cache (4 bytes @ 0x20000000) - Data: 00 00 00 00  returns 0x04 (0002ms, 1338ms total)
T0444 003:361 JLINK_ReadMemEx(0x000001AC, 0x0002 Bytes, ..., Flags = 0x02000000) -- CPU_ReadMem(64 bytes @ 0x00000180) -- Updating C cache (64 bytes @ 0x00000180) -- Read from C cache (2 bytes @ 0x000001AC) - Data: 09 48  returns 0x02 (0001ms, 1339ms total)
T0444 003:362 JLINK_SetBPEx(Addr = 0x00006024, Type = 0xFFFFFFF2)  returns 0x00000001 (0000ms, 1339ms total)
T0444 003:362 JLINK_Go() -- CPU_ReadMem(4 bytes @ 0xE0001000) -- CPU_WriteMem(4 bytes @ 0xE0002008) -- CPU_WriteMem(4 bytes @ 0xE000200C) -- CPU_WriteMem(4 bytes @ 0xE0002010) -- CPU_WriteMem(4 bytes @ 0xE0002014) -- CPU_WriteMem(4 bytes @ 0xE0002018) -- CPU_WriteMem(4 bytes @ 0xE000201C) -- CPU_WriteMem(4 bytes @ 0xE0001004) (0004ms, 1343ms total)
T0444 003:467 JLINK_IsHalted()  returns TRUE (0003ms, 1346ms total)
T0444 003:470 JLINK_Halt()  returns 0x00 (0000ms, 1343ms total)
T0444 003:470 JLINK_IsHalted()  returns TRUE (0000ms, 1343ms total)
T0444 003:470 JLINK_IsHalted()  returns TRUE (0000ms, 1343ms total)
T0444 003:470 JLINK_IsHalted()  returns TRUE (0000ms, 1343ms total)
T0444 003:470 JLINK_ReadReg(R15 (PC))  returns 0x00006024 (0000ms, 1343ms total)
T0444 003:470 JLINK_ReadReg(XPSR)  returns 0x21000000 (0000ms, 1343ms total)
T0444 003:470 JLINK_ClrBPEx(BPHandle = 0x00000001)  returns 0x00 (0000ms, 1343ms total)
T0444 003:470 JLINK_ReadMemU32(0xE000ED30, 0x0001 Items, ...) -- CPU_ReadMem(4 bytes @ 0xE000ED30) - Data: 03 00 00 00  returns 0x01 (0001ms, 1344ms total)
T0444 003:471 JLINK_ReadMemU32(0xE0001028, 0x0001 Items, ...) -- CPU_ReadMem(4 bytes @ 0xE0001028) - Data: 00 00 00 00  returns 0x01 (0001ms, 1345ms total)
T0444 003:472 JLINK_ReadMemU32(0xE0001038, 0x0001 Items, ...) -- CPU_ReadMem(4 bytes @ 0xE0001038) - Data: 00 02 00 00  returns 0x01 (0000ms, 1345ms total)
T0444 003:473 JLINK_ReadMemU32(0xE0001048, 0x0001 Items, ...) -- CPU_ReadMem(4 bytes @ 0xE0001048) - Data: 00 00 00 00  returns 0x01 (0000ms, 1345ms total)
T0444 003:473 JLINK_ReadMemU32(0xE0001058, 0x0001 Items, ...) -- CPU_ReadMem(4 bytes @ 0xE0001058) - Data: 00 00 00 01  returns 0x01 (0001ms, 1346ms total)
T0444 003:474 JLINK_ReadReg(R0)  returns 0x100078B0 (0000ms, 1346ms total)
T0444 003:474 JLINK_ReadReg(R1)  returns 0x1000F8B0 (0000ms, 1346ms total)
T0444 003:474 JLINK_ReadReg(R2)  returns 0x1000F8B0 (0000ms, 1346ms total)
T0444 003:474 JLINK_ReadReg(R3)  returns 0x20001490 (0000ms, 1346ms total)
T0444 003:474 JLINK_ReadReg(R4)  returns 0x00000000 (0000ms, 1346ms total)
T0444 003:474 JLINK_ReadReg(R5)  returns 0x2000142C (0000ms, 1346ms total)
T0444 003:474 JLINK_ReadReg(R6)  returns 0x00000000 (0000ms, 1346ms total)
T0444 003:474 JLINK_ReadReg(R7)  returns 0x00000000 (0000ms, 1346ms total)
T0444 003:474 JLINK_ReadReg(R8)  returns 0x00000000 (0000ms, 1346ms total)
T0444 003:474 JLINK_ReadReg(R9)  returns 0x47884042 (0000ms, 1346ms total)
T0444 003:474 JLINK_ReadReg(R10)  returns 0x000134AC (0000ms, 1346ms total)
T0444 003:474 JLINK_ReadReg(R11)  returns 0x00000000 (0000ms, 1346ms total)
T0444 003:474 JLINK_ReadReg(R12)  returns 0x100078C0 (0000ms, 1346ms total)
T0444 003:474 JLINK_ReadReg(R13 (SP))  returns 0x20004490 (0000ms, 1346ms total)
T0444 003:474 JLINK_ReadReg(R14)  returns 0x00000185 (0000ms, 1346ms total)
T0444 003:475 JLINK_ReadReg(R15 (PC))  returns 0x00006024 (0000ms, 1347ms total)
T0444 003:475 JLINK_ReadReg(XPSR)  returns 0x21000000 (0000ms, 1347ms total)
T0444 003:475 JLINK_ReadReg(MSP)  returns 0x20004490 (0000ms, 1347ms total)
T0444 003:475 JLINK_ReadReg(PSP)  returns 0x1BDDD134 (0000ms, 1347ms total)
T0444 003:475 JLINK_ReadReg(CFBP)  returns 0x04000000 (0000ms, 1347ms total)
T0444 003:475 JLINK_ReadReg(FPSCR)  returns 0x03000000 (0005ms, 1352ms total)
T0444 003:480 JLINK_ReadReg(FPS0)  returns 0x80000000 (0000ms, 1352ms total)
T0444 003:480 JLINK_ReadReg(FPS1)  returns 0x3FE02734 (0000ms, 1352ms total)
T0444 003:480 JLINK_ReadReg(FPS2)  returns 0x3F0139A4 (0000ms, 1352ms total)
T0444 003:480 JLINK_ReadReg(FPS3)  returns 0xACD5EB26 (0000ms, 1352ms total)
T0444 003:480 JLINK_ReadReg(FPS4)  returns 0xFD91DE3E (0000ms, 1352ms total)
T0444 003:480 JLINK_ReadReg(FPS5)  returns 0xB396F07B (0000ms, 1352ms total)
T0444 003:480 JLINK_ReadReg(FPS6)  returns 0xF4965923 (0000ms, 1352ms total)
T0444 003:480 JLINK_ReadReg(FPS7)  returns 0xD29978E2 (0000ms, 1352ms total)
T0444 003:480 JLINK_ReadReg(FPS8)  returns 0xEC1D69E0 (0000ms, 1352ms total)
T0444 003:480 JLINK_ReadReg(FPS9)  returns 0xE6CA4CA3 (0000ms, 1352ms total)
T0444 003:480 JLINK_ReadReg(FPS10)  returns 0x8B4B455E (0000ms, 1352ms total)
T0444 003:480 JLINK_ReadReg(FPS11)  returns 0x61AD6570 (0000ms, 1352ms total)
T0444 003:480 JLINK_ReadReg(FPS12)  returns 0xF3321B1C (0000ms, 1352ms total)
T0444 003:480 JLINK_ReadReg(FPS13)  returns 0xFF88AA28 (0000ms, 1352ms total)
T0444 003:480 JLINK_ReadReg(FPS14)  returns 0xD0E9421E (0000ms, 1352ms total)
T0444 003:480 JLINK_ReadReg(FPS15)  returns 0x7BA1DB82 (0000ms, 1352ms total)
T0444 003:480 JLINK_ReadReg(FPS16)  returns 0x2FB0E05A (0000ms, 1352ms total)
T0444 003:480 JLINK_ReadReg(FPS17)  returns 0x0362797B (0000ms, 1352ms total)
T0444 003:480 JLINK_ReadReg(FPS18)  returns 0x0CA67FF5 (0000ms, 1352ms total)
T0444 003:480 JLINK_ReadReg(FPS19)  returns 0x65DDD4B1 (0000ms, 1352ms total)
T0444 003:480 JLINK_ReadReg(FPS20)  returns 0x8E4FE5D9 (0000ms, 1352ms total)
T0444 003:480 JLINK_ReadReg(FPS21)  returns 0x1E3F9AB5 (0000ms, 1352ms total)
T0444 003:480 JLINK_ReadReg(FPS22)  returns 0x7346DDF1 (0000ms, 1352ms total)
T0444 003:480 JLINK_ReadReg(FPS23)  returns 0xC3FDD626 (0000ms, 1352ms total)
T0444 003:480 JLINK_ReadReg(FPS24)  returns 0x579AA31F (0000ms, 1352ms total)
T0444 003:480 JLINK_ReadReg(FPS25)  returns 0x32D8C0E3 (0000ms, 1352ms total)
T0444 003:480 JLINK_ReadReg(FPS26)  returns 0x65698E8D (0000ms, 1352ms total)
T0444 003:480 JLINK_ReadReg(FPS27)  returns 0xAE7E6BD2 (0000ms, 1352ms total)
T0444 003:480 JLINK_ReadReg(FPS28)  returns 0xC6D44CAF (0000ms, 1352ms total)
T0444 003:480 JLINK_ReadReg(FPS29)  returns 0xFEDFACA3 (0000ms, 1352ms total)
T0444 003:480 JLINK_ReadReg(FPS30)  returns 0xCF452F85 (0000ms, 1352ms total)
T0444 003:480 JLINK_ReadReg(FPS31)  returns 0x7AB9E56F (0000ms, 1352ms total)
T1AF4 003:488 JLINK_ReadMemEx(0x20000000, 0x0004 Bytes, ..., Flags = 0x02000000) -- CPU_ReadMem(64 bytes @ 0x20000000) -- Updating C cache (64 bytes @ 0x20000000) -- Read from C cache (4 bytes @ 0x20000000) - Data: 00 00 00 00  returns 0x04 (0002ms, 1354ms total)
T1AF4 003:493 JLINK_ReadMemEx(0x4000C000, 0x000C Bytes, ..., Flags = 0x02000004) -- CPU_ReadMem(12 bytes @ 0x4000C000) - Data: 00 00 00 00 00 00 00 00 01 00 00 00  returns 0x0C (0001ms, 1355ms total)
T1AF4 003:494 JLINK_ReadMemEx(0x4000C000, 0x0004 Bytes, ..., Flags = 0x02000004) -- CPU_ReadMem(4 bytes @ 0x4000C000) - Data: 00 00 00 00  returns 0x04 (0001ms, 1356ms total)
T1AF4 003:495 JLINK_ReadMemEx(0x4000C004, 0x0004 Bytes, ..., Flags = 0x02000004) -- CPU_ReadMem(4 bytes @ 0x4000C004) - Data: 00 00 00 00  returns 0x04 (0001ms, 1357ms total)
T1AF4 003:496 JLINK_ReadMemEx(0x4000C008, 0x0004 Bytes, ..., Flags = 0x02000004) -- CPU_ReadMem(4 bytes @ 0x4000C008) - Data: 01 00 00 00  returns 0x04 (0000ms, 1357ms total)
T1AF4 003:496 JLINK_ReadMemEx(0x4000C00C, 0x0004 Bytes, ..., Flags = 0x02000004) -- CPU_ReadMem(4 bytes @ 0x4000C00C) - Data: 00 00 00 00  returns 0x04 (0001ms, 1358ms total)
T1AF4 003:497 JLINK_ReadMemEx(0x4000C00C, 0x0004 Bytes, ..., Flags = 0x02000004) -- CPU_ReadMem(4 bytes @ 0x4000C00C) - Data: 00 00 00 00  returns 0x04 (0001ms, 1359ms total)
T1AF4 003:498 JLINK_ReadMemEx(0x4000C01C, 0x0004 Bytes, ..., Flags = 0x02000004) -- CPU_ReadMem(4 bytes @ 0x4000C01C) - Data: 00 00 00 00  returns 0x04 (0001ms, 1360ms total)
T1AF4 003:499 JLINK_ReadMemEx(0x4000C01C, 0x0004 Bytes, ..., Flags = 0x02000004) -- CPU_ReadMem(4 bytes @ 0x4000C01C) - Data: 00 00 00 00  returns 0x04 (0000ms, 1360ms total)
T1AF4 003:499 JLINK_ReadMemEx(0x4000C020, 0x0004 Bytes, ..., Flags = 0x02000004) -- CPU_ReadMem(4 bytes @ 0x4000C020) - Data: 00 00 00 00  returns 0x04 (0001ms, 1361ms total)
T1AF4 003:500 JLINK_ReadMemEx(0x4000C020, 0x0004 Bytes, ..., Flags = 0x02000004) -- CPU_ReadMem(4 bytes @ 0x4000C020) - Data: 00 00 00 00  returns 0x04 (0001ms, 1362ms total)
T1AF4 003:501 JLINK_ReadMemEx(0x4000C028, 0x0004 Bytes, ..., Flags = 0x02000004) -- CPU_ReadMem(4 bytes @ 0x4000C028) - Data: 10 00 00 00  returns 0x04 (0001ms, 1363ms total)
T1AF4 003:502 JLINK_ReadMemEx(0x4000C028, 0x0004 Bytes, ..., Flags = 0x02000004) -- CPU_ReadMem(4 bytes @ 0x4000C028) - Data: 10 00 00 00  returns 0x04 (0001ms, 1364ms total)
T1AF4 003:503 JLINK_ReadMemEx(0x4000C030, 0x0004 Bytes, ..., Flags = 0x02000004) -- CPU_ReadMem(4 bytes @ 0x4000C030) - Data: 80 00 00 00  returns 0x04 (0000ms, 1364ms total)
T1AF4 003:503 JLINK_ReadMemEx(0x4000C030, 0x0004 Bytes, ..., Flags = 0x02000004) -- CPU_ReadMem(4 bytes @ 0x4000C030) - Data: 80 00 00 00  returns 0x04 (0001ms, 1365ms total)
T1AF4 003:504 JLINK_ReadMemEx(0x4000C04C, 0x0008 Bytes, ..., Flags = 0x02000004) -- CPU_ReadMem(8 bytes @ 0x4000C04C) - Data: 00 00 00 00 00 00 00 00  returns 0x08 (0001ms, 1366ms total)
T1AF4 003:505 JLINK_ReadMemEx(0x4000C04C, 0x0004 Bytes, ..., Flags = 0x02000004) -- CPU_ReadMem(4 bytes @ 0x4000C04C) - Data: 00 00 00 00  returns 0x04 (0001ms, 1367ms total)
T1AF4 003:506 JLINK_ReadMemEx(0x4000C050, 0x0004 Bytes, ..., Flags = 0x02000004) -- CPU_ReadMem(4 bytes @ 0x4000C050) - Data: 00 00 00 00  returns 0x04 (0000ms, 1367ms total)
T1AF4 003:506 JLINK_ReadMemEx(0x4000C054, 0x0004 Bytes, ..., Flags = 0x02000004) -- CPU_ReadMem(4 bytes @ 0x4000C054) - Data: 00 00 00 00  returns 0x04 (0001ms, 1368ms total)
T1AF4 003:507 JLINK_ReadMemEx(0x4000C054, 0x0004 Bytes, ..., Flags = 0x02000004) -- CPU_ReadMem(4 bytes @ 0x4000C054) - Data: 00 00 00 00  returns 0x04 (0001ms, 1369ms total)
